
T294C 000:629 SEGGER J-Link V4.90 Log File (0001ms, 0269ms total)
T294C 000:629 DLL Compiled: Jul 28 2014 10:35:20 (0001ms, 0269ms total)
T294C 000:629 Logging started @ 2017-08-01 07:54 (0001ms, 0269ms total)
T294C 000:630 JLINK_SetWarnOutHandler(...) (0000ms, 0269ms total)
T294C 000:630 JLINK_OpenEx(...)
Firmware: J-Link ARM-OB STM32 compiled Aug 22 2012 19:52:04
Hardware: V7.00
S/N: 20090928
Feature(s): RDI,FlashDL,FlashBP,JFlash,GDBFull  returns O.K. (0266ms, 0535ms total)
T294C 000:896 JLINK_SetErrorOutHandler(...) (0000ms, 0535ms total)
T294C 000:896 JLINK_ExecCommand("ProjectFile = "D:\desktop\patrol_car3.0\stm32\USER\JLinkSettings.ini"", ...)Device "UNSPECIFIED" selected (0 KB flash, 0 KB RAM).  returns 0x00 (0009ms, 0544ms total)
T294C 000:918 JLINK_ExecCommand("Device = STM32F407VGTx", ...)Device "UNSPECIFIED" selected (0 KB flash, 0 KB RAM).  returns 0x00 (0027ms, 0571ms total)
T294C 000:945 JLINK_ExecCommand("DisableConnectionTimeout", ...)  returns 0x01 (0000ms, 0571ms total)
T294C 000:945 JLINK_GetHardwareVersion()  returns 0x11170 (0000ms, 0571ms total)
T294C 000:945 JLINK_GetDLLVersion()  returns 49000 (0000ms, 0571ms total)
T294C 000:945 JLINK_GetFirmwareString(...) (0000ms, 0571ms total)
T294C 000:998 JLINK_GetDLLVersion()  returns 49000 (0000ms, 0571ms total)
T294C 000:998 JLINK_GetCompileDateTime() (0000ms, 0571ms total)
T294C 001:008 JLINK_GetFirmwareString(...) (0000ms, 0571ms total)
T294C 001:013 JLINK_GetHardwareVersion()  returns 0x11170 (0000ms, 0571ms total)
T294C 001:038 JLINK_TIF_Select(JLINKARM_TIF_SWD)  returns 0x00 (0000ms, 0571ms total)
T294C 001:038 JLINK_SetSpeed(5000) (0001ms, 0572ms total)
T294C 001:039 JLINK_GetId() >0x108 TIF>Found SWD-DP with ID 0x2BA01477 >0x0D TIF> >0x21 TIF> >0x0D TIF> >0x28 TIF> >0x0D TIF> >0x28 TIF> >0x0D TIF> >0x21 TIF> >0x0D TIF> >0x28 TIF> >0x0D TIF> >0x21 TIF> >0x0D TIF> >0x21 TIF> >0x0D TIF> >0x21 TIF> >0x0D TIF> >0x21 TIF> >0x0D TIF> >0x28 TIF> >0x0D TIF> >0x28 TIF> >0x0D TIF> >0x21 TIF> >0x0D TIF> >0x28 TIF> >0x0D TIF> >0x28 TIF> >0x0D TIF> >0x28 TIF> >0x0D TIF> >0x21 TIF> >0x0D TIF> >0x21 TIF> >0x0D TIF> >0x28 TIF> >0x0D TIF> >0x21 TIF> >0x0D TIF>
 >0x21 TIF>Found Cortex-M4 r0p1, Little endian. -- CPU_WriteMem(4 bytes @ 0xE0002000) -- CPU_ReadMem(4 bytes @ 0xE000EDF0) -- CPU_ReadMem(4 bytes @ 0xE0002000)FPUnit: 6 code (BP) slots and 2 literal slots -- CPU_ReadMem(4 bytes @ 0xE000EDFC) -- CPU_ReadMem(4 bytes @ 0xE0001000) -- CPU_WriteMem(4 bytes @ 0xE0001000) -- CPU_ReadMem(4 bytes @ 0xE00FF010)TPIU fitted. -- CPU_ReadMem(4 bytes @ 0xE00FF014)ETM fitted. -- CPU_ReadMem(4 bytes @ 0xE00FF018) >0x0D TIF> >0x21 TIF>  returns 0x2BA01477
 (0049ms, 0621ms total)
T294C 001:088 JLINK_GetDLLVersion()  returns 49000 (0000ms, 0621ms total)
T294C 001:088 JLINK_CORE_GetFound()  returns 0xE0000FF (0000ms, 0621ms total)
T294C 001:093 JLINK_GetDebugInfo(0x100) -- Value=0xE00FF003  returns 0x00 (0000ms, 0621ms total)
T294C 001:093 JLINK_GetDebugInfo(0x101)  returns 0xFFFFFFFF (0000ms, 0621ms total)
T294C 001:093 JLINK_ReadMem (0xE0041FF0, 0x0010 Bytes, ...) -- CPU is running -- CPU_ReadMem(16 bytes @ 0xE0041FF0) - Data: 0D 00 00 00 90 00 00 00 05 00 00 00 B1 00 00 00  returns 0x00 (0001ms, 0622ms total)
T294C 001:094 JLINK_GetDebugInfo(0x102)  returns 0xFFFFFFFF (0000ms, 0622ms total)
T294C 001:094 JLINK_GetDebugInfo(0x103)  returns 0xFFFFFFFF (0000ms, 0622ms total)
T294C 001:094 JLINK_ReadMem (0xE0040FF0, 0x0010 Bytes, ...) -- CPU is running -- CPU_ReadMem(16 bytes @ 0xE0040FF0) - Data: 0D 00 00 00 90 00 00 00 05 00 00 00 B1 00 00 00  returns 0x00 (0001ms, 0623ms total)
T294C 001:095 JLINK_GetDebugInfo(0x104)  returns 0xFFFFFFFF (0000ms, 0623ms total)
T294C 001:095 JLINK_GetDebugInfo(0x105)  returns 0xFFFFFFFF (0000ms, 0623ms total)
T294C 001:095 JLINK_GetDebugInfo(0x106)  returns 0xFFFFFFFF (0000ms, 0623ms total)
T294C 001:095 JLINK_GetDebugInfo(0x107)  returns 0xFFFFFFFF (0000ms, 0623ms total)
T294C 001:095 JLINK_GetDebugInfo(0x10C)  returns 0xFFFFFFFF (0000ms, 0623ms total)
T294C 001:095 JLINK_ReadMemU32(0xE000EF40, 0x0001 Items, ...) -- CPU is running -- CPU_ReadMem(4 bytes @ 0xE000EF40) - Data: 21 00 11 10  returns 0x01 (0001ms, 0624ms total)
T294C 001:096 JLINK_ReadMemU32(0xE000EF44, 0x0001 Items, ...) -- CPU is running -- CPU_ReadMem(4 bytes @ 0xE000EF44) - Data: 11 00 00 11  returns 0x01 (0000ms, 0624ms total)
T294C 001:096 JLINK_ReadMemU32(0xE000ED00, 0x0001 Items, ...) -- CPU is running -- CPU_ReadMem(4 bytes @ 0xE000ED00) - Data: 41 C2 0F 41  returns 0x01 (0001ms, 0625ms total)
T294C 001:097 JLINK_SetResetType(JLINKARM_RESET_TYPE_NORMAL)  returns JLINKARM_RESET_TYPE_NORMAL (0000ms, 0625ms total)
T294C 001:097 JLINK_Reset() -- CPU is running -- CPU_WriteMem(4 bytes @ 0xE000EDF0) -- CPU is running -- CPU_WriteMem(4 bytes @ 0xE000EDFC) >0x35 TIF> -- CPU is running -- CPU_WriteMem(4 bytes @ 0xE000ED0C) -- CPU is running -- CPU_ReadMem(4 bytes @ 0xE000EDF0) -- CPU is running -- CPU_ReadMem(4 bytes @ 0xE000EDF0) -- CPU is running -- CPU_WriteMem(4 bytes @ 0xE000EDF0) -- CPU is running -- CPU_WriteMem(4 bytes @ 0xE000EDFC) -- CPU is running -- CPU_ReadMem(4 bytes @ 0xE000EDF0)
 -- CPU_WriteMem(4 bytes @ 0xE0002000) -- CPU_ReadMem(4 bytes @ 0xE000EDFC) -- CPU_ReadMem(4 bytes @ 0xE0001000) (0019ms, 0644ms total)
T294C 001:116 JLINK_Halt()  returns 0x00 (0000ms, 0644ms total)
T294C 001:116 JLINK_IsHalted()  returns TRUE (0000ms, 0644ms total)
T294C 001:116 JLINK_ReadMemU32(0xE000EDF0, 0x0001 Items, ...) -- CPU_ReadMem(4 bytes @ 0xE000EDF0) - Data: 03 00 03 00  returns 0x01 (0001ms, 0645ms total)
T294C 001:117 JLINK_WriteU32(0xE000EDF0, 0xA05F0003) -- CPU_WriteMem(4 bytes @ 0xE000EDF0)  returns 0x00 (0000ms, 0645ms total)
T294C 001:117 JLINK_WriteU32(0xE000EDFC, 0x01000000) -- CPU_WriteMem(4 bytes @ 0xE000EDFC)  returns 0x00 (0001ms, 0646ms total)
T294C 001:137 JLINK_GetHWStatus(...)  returns 0x00 (0000ms, 0646ms total)
T294C 001:163 JLINK_GetNumBPUnits(Type = 0xFFFFFF00)  returns 0x06 (0000ms, 0646ms total)
T294C 001:163 JLINK_GetNumBPUnits(Type = 0xF0)  returns 0x2000 (0000ms, 0646ms total)
T294C 001:163 JLINK_GetNumWPUnits()  returns 0x04 (0000ms, 0646ms total)
T294C 001:187 JLINK_GetSpeed()  returns 0xFA0 (0000ms, 0646ms total)
T294C 001:198 JLINK_ReadMemU32(0xE000E004, 0x0001 Items, ...) -- CPU_ReadMem(4 bytes @ 0xE000E004) - Data: 02 00 00 00  returns 0x01 (0001ms, 0647ms total)
T294C 001:199 JLINK_ReadMemU32(0xE000E004, 0x0001 Items, ...) -- CPU_ReadMem(4 bytes @ 0xE000E004) - Data: 02 00 00 00  returns 0x01 (0001ms, 0648ms total)
T294C 001:200 JLINK_WriteMem(0xE0001000, 0x001C Bytes, ...) - Data: 01 00 00 00 00 00 00 00 00 00 00 00 00 00 00 00 ... -- CPU_WriteMem(28 bytes @ 0xE0001000)  returns 0x1C (0001ms, 0649ms total)
T294C 001:201 JLINK_ReadMem (0xE0001000, 0x001C Bytes, ...) -- CPU_ReadMem(28 bytes @ 0xE0001000) - Data: 01 00 00 40 00 00 00 00 00 00 00 00 00 00 00 00 ...  returns 0x00 (0001ms, 0650ms total)
T294C 001:202 JLINK_Halt()  returns 0x00 (0000ms, 0650ms total)
T294C 001:202 JLINK_IsHalted()  returns TRUE (0000ms, 0650ms total)
T294C 001:211 JLINK_WriteMem(0x20000000, 0x0180 Bytes, ...) - Data: 00 BE 0A E0 0D 78 2D 06 68 40 08 24 40 00 00 D3 ... -- CPU_WriteMem(384 bytes @ 0x20000000)  returns 0x180 (0006ms, 0656ms total)
T294C 001:217 JLINK_WriteReg(R0, 0x08000000)  returns 0x00 (0000ms, 0656ms total)
T294C 001:217 JLINK_WriteReg(R1, 0x00B71B00)  returns 0x00 (0000ms, 0656ms total)
T294C 001:217 JLINK_WriteReg(R2, 0x00000001)  returns 0x00 (0000ms, 0656ms total)
T294C 001:217 JLINK_WriteReg(R3, 0x00000000)  returns 0x00 (0000ms, 0656ms total)
T294C 001:217 JLINK_WriteReg(R4, 0x00000000)  returns 0x00 (0000ms, 0656ms total)
T294C 001:217 JLINK_WriteReg(R5, 0x00000000)  returns 0x00 (0000ms, 0656ms total)
T294C 001:217 JLINK_WriteReg(R6, 0x00000000)  returns 0x00 (0000ms, 0656ms total)
T294C 001:217 JLINK_WriteReg(R7, 0x00000000)  returns 0x00 (0000ms, 0656ms total)
T294C 001:217 JLINK_WriteReg(R8, 0x00000000)  returns 0x00 (0000ms, 0656ms total)
T294C 001:217 JLINK_WriteReg(R9, 0x2000017C)  returns 0x00 (0000ms, 0656ms total)
T294C 001:217 JLINK_WriteReg(R10, 0x00000000)  returns 0x00 (0000ms, 0656ms total)
T294C 001:217 JLINK_WriteReg(R11, 0x00000000)  returns 0x00 (0000ms, 0656ms total)
T294C 001:217 JLINK_WriteReg(R12, 0x00000000)  returns 0x00 (0000ms, 0656ms total)
T294C 001:217 JLINK_WriteReg(R13 (SP), 0x20001000)  returns 0x00 (0000ms, 0656ms total)
T294C 001:217 JLINK_WriteReg(R14, 0x20000001)  returns 0x00 (0000ms, 0656ms total)
T294C 001:217 JLINK_WriteReg(R15 (PC), 0x20000054)  returns 0x00 (0000ms, 0656ms total)
T294C 001:217 JLINK_WriteReg(XPSR, 0x01000000)  returns 0x00 (0000ms, 0656ms total)
T294C 001:217 JLINK_WriteReg(MSP, 0x20001000)  returns 0x00 (0000ms, 0656ms total)
T294C 001:217 JLINK_WriteReg(PSP, 0x20001000)  returns 0x00 (0000ms, 0656ms total)
T294C 001:218 JLINK_WriteReg(CFBP, 0x00000000)  returns 0x00 (0000ms, 0657ms total)
T294C 001:218 JLINK_SetBPEx(Addr = 0x20000000, Type = 0xFFFFFFF2) -- CPU_ReadMem(4 bytes @ 0x20000000) -- CPU_WriteMem(4 bytes @ 0x20000000) -- CPU_ReadMem(4 bytes @ 0x20000000) -- CPU_WriteMem(4 bytes @ 0x20000000) -- CPU_ReadMem(2 bytes @ 0x20000000)  returns 0x00000001 (0003ms, 0660ms total)
T294C 001:221 JLINK_Go() -- CPU_WriteMem(2 bytes @ 0x20000000) -- CPU_WriteMem(4 bytes @ 0xE0002008) -- CPU_WriteMem(4 bytes @ 0xE000200C) -- CPU_WriteMem(4 bytes @ 0xE0002010) -- CPU_WriteMem(4 bytes @ 0xE0002014) -- CPU_WriteMem(4 bytes @ 0xE0002018) -- CPU_WriteMem(4 bytes @ 0xE000201C) -- CPU_WriteMem(4 bytes @ 0xE0001004) (0007ms, 0667ms total)
T294C 001:228 JLINK_IsHalted() -- CPU_ReadMem(2 bytes @ 0x20000000)  returns TRUE (0004ms, 0671ms total)
T294C 001:232 JLINK_ReadReg(R15 (PC))  returns 0x20000000 (0000ms, 0667ms total)
T294C 001:232 JLINK_ClrBPEx(BPHandle = 0x00000001)  returns 0x00 (0000ms, 0667ms total)
T294C 001:232 JLINK_ReadReg(R0)  returns 0x00000000 (0000ms, 0667ms total)
T294C 001:232 JLINK_WriteReg(R0, 0x08000000)  returns 0x00 (0000ms, 0667ms total)
T294C 001:232 JLINK_WriteReg(R1, 0x00004000)  returns 0x00 (0000ms, 0667ms total)
T294C 001:232 JLINK_WriteReg(R2, 0x000000FF)  returns 0x00 (0001ms, 0668ms total)
T294C 001:233 JLINK_WriteReg(R3, 0x00000000)  returns 0x00 (0000ms, 0668ms total)
T294C 001:233 JLINK_WriteReg(R4, 0x00000000)  returns 0x00 (0000ms, 0668ms total)
T294C 001:233 JLINK_WriteReg(R5, 0x00000000)  returns 0x00 (0000ms, 0668ms total)
T294C 001:233 JLINK_WriteReg(R6, 0x00000000)  returns 0x00 (0000ms, 0668ms total)
T294C 001:233 JLINK_WriteReg(R7, 0x00000000)  returns 0x00 (0000ms, 0668ms total)
T294C 001:233 JLINK_WriteReg(R8, 0x00000000)  returns 0x00 (0000ms, 0668ms total)
T294C 001:233 JLINK_WriteReg(R9, 0x2000017C)  returns 0x00 (0000ms, 0668ms total)
T294C 001:233 JLINK_WriteReg(R10, 0x00000000)  returns 0x00 (0000ms, 0668ms total)
T294C 001:233 JLINK_WriteReg(R11, 0x00000000)  returns 0x00 (0000ms, 0668ms total)
T294C 001:233 JLINK_WriteReg(R12, 0x00000000)  returns 0x00 (0000ms, 0668ms total)
T294C 001:233 JLINK_WriteReg(R13 (SP), 0x20001000)  returns 0x00 (0000ms, 0668ms total)
T294C 001:233 JLINK_WriteReg(R14, 0x20000001)  returns 0x00 (0000ms, 0668ms total)
T294C 001:233 JLINK_WriteReg(R15 (PC), 0x20000020)  returns 0x00 (0000ms, 0668ms total)
T294C 001:233 JLINK_WriteReg(XPSR, 0x01000000)  returns 0x00 (0000ms, 0668ms total)
T294C 001:233 JLINK_WriteReg(MSP, 0x20001000)  returns 0x00 (0000ms, 0668ms total)
T294C 001:233 JLINK_WriteReg(PSP, 0x20001000)  returns 0x00 (0000ms, 0668ms total)
T294C 001:233 JLINK_WriteReg(CFBP, 0x00000000)  returns 0x00 (0000ms, 0668ms total)
T294C 001:233 JLINK_SetBPEx(Addr = 0x20000000, Type = 0xFFFFFFF2)  returns 0x00000002 (0000ms, 0668ms total)
T294C 001:233 JLINK_Go() (0002ms, 0670ms total)
T294C 001:235 JLINK_IsHalted() -- CPU_ReadMem(2 bytes @ 0x20000000)  returns TRUE (0004ms, 0674ms total)
T294C 001:239 JLINK_ReadReg(R15 (PC))  returns 0x20000000 (0000ms, 0670ms total)
T294C 001:239 JLINK_ClrBPEx(BPHandle = 0x00000002)  returns 0x00 (0000ms, 0670ms total)
T294C 001:239 JLINK_ReadReg(R0)  returns 0x00000001 (0000ms, 0670ms total)
T294C 001:239 JLINK_WriteReg(R0, 0x08000000)  returns 0x00 (0000ms, 0670ms total)
T294C 001:239 JLINK_WriteReg(R1, 0x00004000)  returns 0x00 (0000ms, 0670ms total)
T294C 001:239 JLINK_WriteReg(R2, 0x000000FF)  returns 0x00 (0000ms, 0670ms total)
T294C 001:239 JLINK_WriteReg(R3, 0x00000000)  returns 0x00 (0000ms, 0670ms total)
T294C 001:239 JLINK_WriteReg(R4, 0x00000000)  returns 0x00 (0000ms, 0670ms total)
T294C 001:239 JLINK_WriteReg(R5, 0x00000000)  returns 0x00 (0000ms, 0670ms total)
T294C 001:239 JLINK_WriteReg(R6, 0x00000000)  returns 0x00 (0000ms, 0670ms total)
T294C 001:239 JLINK_WriteReg(R7, 0x00000000)  returns 0x00 (0000ms, 0670ms total)
T294C 001:239 JLINK_WriteReg(R8, 0x00000000)  returns 0x00 (0000ms, 0670ms total)
T294C 001:239 JLINK_WriteReg(R9, 0x2000017C)  returns 0x00 (0000ms, 0670ms total)
T294C 001:239 JLINK_WriteReg(R10, 0x00000000)  returns 0x00 (0000ms, 0670ms total)
T294C 001:239 JLINK_WriteReg(R11, 0x00000000)  returns 0x00 (0000ms, 0670ms total)
T294C 001:239 JLINK_WriteReg(R12, 0x00000000)  returns 0x00 (0000ms, 0670ms total)
T294C 001:239 JLINK_WriteReg(R13 (SP), 0x20001000)  returns 0x00 (0000ms, 0670ms total)
T294C 001:239 JLINK_WriteReg(R14, 0x20000001)  returns 0x00 (0000ms, 0670ms total)
T294C 001:239 JLINK_WriteReg(R15 (PC), 0x200000BC)  returns 0x00 (0000ms, 0670ms total)
T294C 001:239 JLINK_WriteReg(XPSR, 0x01000000)  returns 0x00 (0001ms, 0671ms total)
T294C 001:240 JLINK_WriteReg(MSP, 0x20001000)  returns 0x00 (0000ms, 0671ms total)
T294C 001:240 JLINK_WriteReg(PSP, 0x20001000)  returns 0x00 (0000ms, 0671ms total)
T294C 001:240 JLINK_WriteReg(CFBP, 0x00000000)  returns 0x00 (0000ms, 0671ms total)
T294C 001:240 JLINK_SetBPEx(Addr = 0x20000000, Type = 0xFFFFFFF2)  returns 0x00000003 (0000ms, 0671ms total)
T294C 001:240 JLINK_Go() (0001ms, 0672ms total)
T294C 001:241 JLINK_IsHalted()  returns FALSE (0001ms, 0673ms total)
T294C 001:668 JLINK_IsHalted() -- CPU_ReadMem(2 bytes @ 0x20000000)  returns TRUE (0003ms, 0675ms total)
T294C 001:671 JLINK_ReadReg(R15 (PC))  returns 0x20000000 (0000ms, 0672ms total)
T294C 001:671 JLINK_ClrBPEx(BPHandle = 0x00000003)  returns 0x00 (0000ms, 0672ms total)
T294C 001:671 JLINK_ReadReg(R0)  returns 0x00000000 (0000ms, 0672ms total)
T294C 001:672 JLINK_WriteReg(R0, 0x00000001)  returns 0x00 (0000ms, 0672ms total)
T294C 001:672 JLINK_WriteReg(R1, 0x00004000)  returns 0x00 (0000ms, 0672ms total)
T294C 001:672 JLINK_WriteReg(R2, 0x000000FF)  returns 0x00 (0000ms, 0672ms total)
T294C 001:672 JLINK_WriteReg(R3, 0x00000000)  returns 0x00 (0000ms, 0672ms total)
T294C 001:672 JLINK_WriteReg(R4, 0x00000000)  returns 0x00 (0000ms, 0672ms total)
T294C 001:672 JLINK_WriteReg(R5, 0x00000000)  returns 0x00 (0000ms, 0672ms total)
T294C 001:672 JLINK_WriteReg(R6, 0x00000000)  returns 0x00 (0000ms, 0672ms total)
T294C 001:672 JLINK_WriteReg(R7, 0x00000000)  returns 0x00 (0000ms, 0672ms total)
T294C 001:672 JLINK_WriteReg(R8, 0x00000000)  returns 0x00 (0000ms, 0672ms total)
T294C 001:672 JLINK_WriteReg(R9, 0x2000017C)  returns 0x00 (0000ms, 0672ms total)
T294C 001:672 JLINK_WriteReg(R10, 0x00000000)  returns 0x00 (0000ms, 0672ms total)
T294C 001:672 JLINK_WriteReg(R11, 0x00000000)  returns 0x00 (0000ms, 0672ms total)
T294C 001:672 JLINK_WriteReg(R12, 0x00000000)  returns 0x00 (0001ms, 0673ms total)
T294C 001:673 JLINK_WriteReg(R13 (SP), 0x20001000)  returns 0x00 (0000ms, 0673ms total)
T294C 001:673 JLINK_WriteReg(R14, 0x20000001)  returns 0x00 (0000ms, 0673ms total)
T294C 001:673 JLINK_WriteReg(R15 (PC), 0x20000082)  returns 0x00 (0000ms, 0673ms total)
T294C 001:673 JLINK_WriteReg(XPSR, 0x01000000)  returns 0x00 (0000ms, 0673ms total)
T294C 001:673 JLINK_WriteReg(MSP, 0x20001000)  returns 0x00 (0000ms, 0673ms total)
T294C 001:673 JLINK_WriteReg(PSP, 0x20001000)  returns 0x00 (0000ms, 0673ms total)
T294C 001:673 JLINK_WriteReg(CFBP, 0x00000000)  returns 0x00 (0000ms, 0673ms total)
T294C 001:673 JLINK_SetBPEx(Addr = 0x20000000, Type = 0xFFFFFFF2)  returns 0x00000004 (0000ms, 0673ms total)
T294C 001:673 JLINK_Go() (0002ms, 0675ms total)
T294C 001:675 JLINK_IsHalted() -- CPU_ReadMem(2 bytes @ 0x20000000)  returns TRUE (0004ms, 0679ms total)
T294C 001:679 JLINK_ReadReg(R15 (PC))  returns 0x20000000 (0000ms, 0675ms total)
T294C 001:679 JLINK_ClrBPEx(BPHandle = 0x00000004)  returns 0x00 (0000ms, 0675ms total)
T294C 001:679 JLINK_ReadReg(R0)  returns 0x00000000 (0000ms, 0675ms total)
T294C 001:742 JLINK_WriteMem(0x20000000, 0x0180 Bytes, ...) - Data: 00 BE 0A E0 0D 78 2D 06 68 40 08 24 40 00 00 D3 ... -- CPU_WriteMem(384 bytes @ 0x20000000)  returns 0x180 (0006ms, 0681ms total)
T294C 001:748 JLINK_WriteReg(R0, 0x08000000)  returns 0x00 (0000ms, 0681ms total)
T294C 001:748 JLINK_WriteReg(R1, 0x00B71B00)  returns 0x00 (0000ms, 0681ms total)
T294C 001:748 JLINK_WriteReg(R2, 0x00000002)  returns 0x00 (0000ms, 0681ms total)
T294C 001:748 JLINK_WriteReg(R3, 0x00000000)  returns 0x00 (0000ms, 0681ms total)
T294C 001:748 JLINK_WriteReg(R4, 0x00000000)  returns 0x00 (0000ms, 0681ms total)
T294C 001:748 JLINK_WriteReg(R5, 0x00000000)  returns 0x00 (0000ms, 0681ms total)
T294C 001:748 JLINK_WriteReg(R6, 0x00000000)  returns 0x00 (0000ms, 0681ms total)
T294C 001:748 JLINK_WriteReg(R7, 0x00000000)  returns 0x00 (0000ms, 0681ms total)
T294C 001:748 JLINK_WriteReg(R8, 0x00000000)  returns 0x00 (0000ms, 0681ms total)
T294C 001:748 JLINK_WriteReg(R9, 0x2000017C)  returns 0x00 (0000ms, 0681ms total)
T294C 001:748 JLINK_WriteReg(R10, 0x00000000)  returns 0x00 (0000ms, 0681ms total)
T294C 001:748 JLINK_WriteReg(R11, 0x00000000)  returns 0x00 (0000ms, 0681ms total)
T294C 001:748 JLINK_WriteReg(R12, 0x00000000)  returns 0x00 (0000ms, 0681ms total)
T294C 001:748 JLINK_WriteReg(R13 (SP), 0x20001000)  returns 0x00 (0000ms, 0681ms total)
T294C 001:748 JLINK_WriteReg(R14, 0x20000001)  returns 0x00 (0000ms, 0681ms total)
T294C 001:748 JLINK_WriteReg(R15 (PC), 0x20000054)  returns 0x00 (0000ms, 0681ms total)
T294C 001:748 JLINK_WriteReg(XPSR, 0x01000000)  returns 0x00 (0000ms, 0681ms total)
T294C 001:748 JLINK_WriteReg(MSP, 0x20001000)  returns 0x00 (0000ms, 0681ms total)
T294C 001:748 JLINK_WriteReg(PSP, 0x20001000)  returns 0x00 (0000ms, 0681ms total)
T294C 001:748 JLINK_WriteReg(CFBP, 0x00000000)  returns 0x00 (0000ms, 0681ms total)
T294C 001:748 JLINK_SetBPEx(Addr = 0x20000000, Type = 0xFFFFFFF2) -- CPU_ReadMem(4 bytes @ 0x20000000) -- CPU_WriteMem(4 bytes @ 0x20000000) -- CPU_ReadMem(4 bytes @ 0x20000000) -- CPU_WriteMem(4 bytes @ 0x20000000) -- CPU_ReadMem(2 bytes @ 0x20000000)  returns 0x00000005 (0004ms, 0685ms total)
T294C 001:752 JLINK_Go() -- CPU_WriteMem(2 bytes @ 0x20000000) (0003ms, 0688ms total)
T294C 001:755 JLINK_IsHalted() -- CPU_ReadMem(2 bytes @ 0x20000000)  returns TRUE (0004ms, 0692ms total)
T294C 001:759 JLINK_ReadReg(R15 (PC))  returns 0x20000000 (0000ms, 0688ms total)
T294C 001:759 JLINK_ClrBPEx(BPHandle = 0x00000005)  returns 0x00 (0000ms, 0688ms total)
T294C 001:759 JLINK_ReadReg(R0)  returns 0x00000000 (0000ms, 0688ms total)
T294C 001:760 JLINK_WriteMem(0x20000180, 0x0400 Bytes, ...) - Data: B8 07 00 20 59 15 00 08 2D 06 00 08 2F 06 00 08 ... -- CPU_WriteMem(1024 bytes @ 0x20000180)  returns 0x400 (0013ms, 0701ms total)
T294C 001:773 JLINK_WriteReg(R0, 0x08000000)  returns 0x00 (0000ms, 0701ms total)
T294C 001:773 JLINK_WriteReg(R1, 0x00000400)  returns 0x00 (0000ms, 0701ms total)
T294C 001:773 JLINK_WriteReg(R2, 0x20000180)  returns 0x00 (0000ms, 0701ms total)
T294C 001:773 JLINK_WriteReg(R3, 0x00000000)  returns 0x00 (0000ms, 0701ms total)
T294C 001:773 JLINK_WriteReg(R4, 0x00000000)  returns 0x00 (0000ms, 0701ms total)
T294C 001:773 JLINK_WriteReg(R5, 0x00000000)  returns 0x00 (0000ms, 0701ms total)
T294C 001:773 JLINK_WriteReg(R6, 0x00000000)  returns 0x00 (0000ms, 0701ms total)
T294C 001:773 JLINK_WriteReg(R7, 0x00000000)  returns 0x00 (0000ms, 0701ms total)
T294C 001:773 JLINK_WriteReg(R8, 0x00000000)  returns 0x00 (0000ms, 0701ms total)
T294C 001:773 JLINK_WriteReg(R9, 0x2000017C)  returns 0x00 (0000ms, 0701ms total)
T294C 001:773 JLINK_WriteReg(R10, 0x00000000)  returns 0x00 (0000ms, 0701ms total)
T294C 001:773 JLINK_WriteReg(R11, 0x00000000)  returns 0x00 (0000ms, 0701ms total)
T294C 001:773 JLINK_WriteReg(R12, 0x00000000)  returns 0x00 (0000ms, 0701ms total)
T294C 001:773 JLINK_WriteReg(R13 (SP), 0x20001000)  returns 0x00 (0000ms, 0701ms total)
T294C 001:773 JLINK_WriteReg(R14, 0x20000001)  returns 0x00 (0000ms, 0701ms total)
T294C 001:773 JLINK_WriteReg(R15 (PC), 0x20000108)  returns 0x00 (0000ms, 0701ms total)
T294C 001:773 JLINK_WriteReg(XPSR, 0x01000000)  returns 0x00 (0000ms, 0701ms total)
T294C 001:773 JLINK_WriteReg(MSP, 0x20001000)  returns 0x00 (0000ms, 0701ms total)
T294C 001:773 JLINK_WriteReg(PSP, 0x20001000)  returns 0x00 (0000ms, 0701ms total)
T294C 001:773 JLINK_WriteReg(CFBP, 0x00000000)  returns 0x00 (0001ms, 0702ms total)
T294C 001:774 JLINK_SetBPEx(Addr = 0x20000000, Type = 0xFFFFFFF2)  returns 0x00000006 (0000ms, 0702ms total)
T294C 001:774 JLINK_Go() (0002ms, 0704ms total)
T294C 001:776 JLINK_IsHalted()  returns FALSE (0000ms, 0704ms total)
T294C 002:127 JLINK_IsHalted() -- CPU_ReadMem(2 bytes @ 0x20000000)  returns TRUE (0004ms, 0708ms total)
T294C 002:131 JLINK_ReadReg(R15 (PC))  returns 0x20000000 (0000ms, 0704ms total)
T294C 002:131 JLINK_ClrBPEx(BPHandle = 0x00000006)  returns 0x00 (0000ms, 0704ms total)
T294C 002:131 JLINK_ReadReg(R0)  returns 0x00000000 (0000ms, 0704ms total)
T294C 002:132 JLINK_WriteMem(0x20000180, 0x0400 Bytes, ...) - Data: 00 F0 65 FA 75 48 00 78 75 49 08 70 73 48 81 78 ... -- CPU_WriteMem(1024 bytes @ 0x20000180)  returns 0x400 (0012ms, 0716ms total)
T294C 002:144 JLINK_WriteReg(R0, 0x08000400)  returns 0x00 (0000ms, 0716ms total)
T294C 002:144 JLINK_WriteReg(R1, 0x00000400)  returns 0x00 (0000ms, 0716ms total)
T294C 002:144 JLINK_WriteReg(R2, 0x20000180)  returns 0x00 (0000ms, 0716ms total)
T294C 002:144 JLINK_WriteReg(R3, 0x00000000)  returns 0x00 (0000ms, 0716ms total)
T294C 002:144 JLINK_WriteReg(R4, 0x00000000)  returns 0x00 (0000ms, 0716ms total)
T294C 002:144 JLINK_WriteReg(R5, 0x00000000)  returns 0x00 (0000ms, 0716ms total)
T294C 002:144 JLINK_WriteReg(R6, 0x00000000)  returns 0x00 (0000ms, 0716ms total)
T294C 002:144 JLINK_WriteReg(R7, 0x00000000)  returns 0x00 (0001ms, 0717ms total)
T294C 002:145 JLINK_WriteReg(R8, 0x00000000)  returns 0x00 (0000ms, 0717ms total)
T294C 002:145 JLINK_WriteReg(R9, 0x2000017C)  returns 0x00 (0000ms, 0717ms total)
T294C 002:145 JLINK_WriteReg(R10, 0x00000000)  returns 0x00 (0000ms, 0717ms total)
T294C 002:145 JLINK_WriteReg(R11, 0x00000000)  returns 0x00 (0000ms, 0717ms total)
T294C 002:145 JLINK_WriteReg(R12, 0x00000000)  returns 0x00 (0000ms, 0717ms total)
T294C 002:145 JLINK_WriteReg(R13 (SP), 0x20001000)  returns 0x00 (0000ms, 0717ms total)
T294C 002:145 JLINK_WriteReg(R14, 0x20000001)  returns 0x00 (0000ms, 0717ms total)
T294C 002:145 JLINK_WriteReg(R15 (PC), 0x20000108)  returns 0x00 (0000ms, 0717ms total)
T294C 002:145 JLINK_WriteReg(XPSR, 0x01000000)  returns 0x00 (0000ms, 0717ms total)
T294C 002:145 JLINK_WriteReg(MSP, 0x20001000)  returns 0x00 (0000ms, 0717ms total)
T294C 002:145 JLINK_WriteReg(PSP, 0x20001000)  returns 0x00 (0000ms, 0717ms total)
T294C 002:145 JLINK_WriteReg(CFBP, 0x00000000)  returns 0x00 (0000ms, 0717ms total)
T294C 002:145 JLINK_SetBPEx(Addr = 0x20000000, Type = 0xFFFFFFF2)  returns 0x00000007 (0000ms, 0717ms total)
T294C 002:145 JLINK_Go() (0002ms, 0719ms total)
T294C 002:147 JLINK_IsHalted()  returns FALSE (0000ms, 0719ms total)
T294C 002:491 JLINK_IsHalted() -- CPU_ReadMem(2 bytes @ 0x20000000)  returns TRUE (0005ms, 0724ms total)
T294C 002:496 JLINK_ReadReg(R15 (PC))  returns 0x20000000 (0000ms, 0719ms total)
T294C 002:496 JLINK_ClrBPEx(BPHandle = 0x00000007)  returns 0x00 (0000ms, 0719ms total)
T294C 002:496 JLINK_ReadReg(R0)  returns 0x00000000 (0000ms, 0719ms total)
T294C 002:497 JLINK_WriteMem(0x20000180, 0x0400 Bytes, ...) - Data: 12 4E 35 60 03 E0 10 4D 10 4E 35 60 00 BF 00 BF ... -- CPU_WriteMem(1024 bytes @ 0x20000180)  returns 0x400 (0012ms, 0731ms total)
T294C 002:509 JLINK_WriteReg(R0, 0x08000800)  returns 0x00 (0000ms, 0731ms total)
T294C 002:509 JLINK_WriteReg(R1, 0x00000400)  returns 0x00 (0000ms, 0731ms total)
T294C 002:509 JLINK_WriteReg(R2, 0x20000180)  returns 0x00 (0000ms, 0731ms total)
T294C 002:509 JLINK_WriteReg(R3, 0x00000000)  returns 0x00 (0000ms, 0731ms total)
T294C 002:509 JLINK_WriteReg(R4, 0x00000000)  returns 0x00 (0000ms, 0731ms total)
T294C 002:509 JLINK_WriteReg(R5, 0x00000000)  returns 0x00 (0000ms, 0731ms total)
T294C 002:509 JLINK_WriteReg(R6, 0x00000000)  returns 0x00 (0000ms, 0731ms total)
T294C 002:509 JLINK_WriteReg(R7, 0x00000000)  returns 0x00 (0000ms, 0731ms total)
T294C 002:509 JLINK_WriteReg(R8, 0x00000000)  returns 0x00 (0000ms, 0731ms total)
T294C 002:509 JLINK_WriteReg(R9, 0x2000017C)  returns 0x00 (0000ms, 0731ms total)
T294C 002:509 JLINK_WriteReg(R10, 0x00000000)  returns 0x00 (0000ms, 0731ms total)
T294C 002:509 JLINK_WriteReg(R11, 0x00000000)  returns 0x00 (0000ms, 0731ms total)
T294C 002:509 JLINK_WriteReg(R12, 0x00000000)  returns 0x00 (0000ms, 0731ms total)
T294C 002:509 JLINK_WriteReg(R13 (SP), 0x20001000)  returns 0x00 (0000ms, 0731ms total)
T294C 002:509 JLINK_WriteReg(R14, 0x20000001)  returns 0x00 (0001ms, 0732ms total)
T294C 002:510 JLINK_WriteReg(R15 (PC), 0x20000108)  returns 0x00 (0000ms, 0732ms total)
T294C 002:510 JLINK_WriteReg(XPSR, 0x01000000)  returns 0x00 (0000ms, 0732ms total)
T294C 002:510 JLINK_WriteReg(MSP, 0x20001000)  returns 0x00 (0000ms, 0732ms total)
T294C 002:510 JLINK_WriteReg(PSP, 0x20001000)  returns 0x00 (0000ms, 0732ms total)
T294C 002:510 JLINK_WriteReg(CFBP, 0x00000000)  returns 0x00 (0000ms, 0732ms total)
T294C 002:510 JLINK_SetBPEx(Addr = 0x20000000, Type = 0xFFFFFFF2)  returns 0x00000008 (0000ms, 0732ms total)
T294C 002:510 JLINK_Go() (0002ms, 0734ms total)
T294C 002:512 JLINK_IsHalted()  returns FALSE (0000ms, 0734ms total)
T294C 002:858 JLINK_IsHalted() -- CPU_ReadMem(2 bytes @ 0x20000000)  returns TRUE (0003ms, 0737ms total)
T294C 002:861 JLINK_ReadReg(R15 (PC))  returns 0x20000000 (0000ms, 0734ms total)
T294C 002:861 JLINK_ClrBPEx(BPHandle = 0x00000008)  returns 0x00 (0000ms, 0734ms total)
T294C 002:861 JLINK_ReadReg(R0)  returns 0x00000000 (0000ms, 0734ms total)
T294C 002:863 JLINK_WriteMem(0x20000180, 0x0400 Bytes, ...) - Data: 00 0A 30 EE 60 0A 72 48 80 ED 00 0A 69 48 90 ED ... -- CPU_WriteMem(1024 bytes @ 0x20000180)  returns 0x400 (0013ms, 0747ms total)
T294C 002:876 JLINK_WriteReg(R0, 0x08000C00)  returns 0x00 (0000ms, 0747ms total)
T294C 002:876 JLINK_WriteReg(R1, 0x00000400)  returns 0x00 (0000ms, 0747ms total)
T294C 002:876 JLINK_WriteReg(R2, 0x20000180)  returns 0x00 (0000ms, 0747ms total)
T294C 002:876 JLINK_WriteReg(R3, 0x00000000)  returns 0x00 (0000ms, 0747ms total)
T294C 002:876 JLINK_WriteReg(R4, 0x00000000)  returns 0x00 (0000ms, 0747ms total)
T294C 002:876 JLINK_WriteReg(R5, 0x00000000)  returns 0x00 (0000ms, 0747ms total)
T294C 002:876 JLINK_WriteReg(R6, 0x00000000)  returns 0x00 (0000ms, 0747ms total)
T294C 002:876 JLINK_WriteReg(R7, 0x00000000)  returns 0x00 (0000ms, 0747ms total)
T294C 002:876 JLINK_WriteReg(R8, 0x00000000)  returns 0x00 (0000ms, 0747ms total)
T294C 002:876 JLINK_WriteReg(R9, 0x2000017C)  returns 0x00 (0000ms, 0747ms total)
T294C 002:876 JLINK_WriteReg(R10, 0x00000000)  returns 0x00 (0000ms, 0747ms total)
T294C 002:876 JLINK_WriteReg(R11, 0x00000000)  returns 0x00 (0000ms, 0747ms total)
T294C 002:876 JLINK_WriteReg(R12, 0x00000000)  returns 0x00 (0000ms, 0747ms total)
T294C 002:876 JLINK_WriteReg(R13 (SP), 0x20001000)  returns 0x00 (0000ms, 0747ms total)
T294C 002:876 JLINK_WriteReg(R14, 0x20000001)  returns 0x00 (0000ms, 0747ms total)
T294C 002:876 JLINK_WriteReg(R15 (PC), 0x20000108)  returns 0x00 (0000ms, 0747ms total)
T294C 002:876 JLINK_WriteReg(XPSR, 0x01000000)  returns 0x00 (0000ms, 0747ms total)
T294C 002:876 JLINK_WriteReg(MSP, 0x20001000)  returns 0x00 (0000ms, 0747ms total)
T294C 002:876 JLINK_WriteReg(PSP, 0x20001000)  returns 0x00 (0000ms, 0747ms total)
T294C 002:876 JLINK_WriteReg(CFBP, 0x00000000)  returns 0x00 (0000ms, 0747ms total)
T294C 002:876 JLINK_SetBPEx(Addr = 0x20000000, Type = 0xFFFFFFF2)  returns 0x00000009 (0000ms, 0747ms total)
T294C 002:876 JLINK_Go() (0002ms, 0749ms total)
T294C 002:878 JLINK_IsHalted()  returns FALSE (0001ms, 0750ms total)
T294C 003:009 JLINK_IsHalted() -- CPU_ReadMem(2 bytes @ 0x20000000)  returns TRUE (0003ms, 0752ms total)
T294C 003:012 JLINK_ReadReg(R15 (PC))  returns 0x20000000 (0000ms, 0749ms total)
T294C 003:012 JLINK_ClrBPEx(BPHandle = 0x00000009)  returns 0x00 (0000ms, 0749ms total)
T294C 003:012 JLINK_ReadReg(R0)  returns 0x00000000 (0000ms, 0749ms total)
T294C 003:014 JLINK_WriteMem(0x20000180, 0x0400 Bytes, ...) - Data: 01 00 40 49 10 31 08 80 70 47 7F B5 05 46 0C 46 ... -- CPU_WriteMem(1024 bytes @ 0x20000180)  returns 0x400 (0012ms, 0761ms total)
T294C 003:027 JLINK_WriteReg(R0, 0x08001000)  returns 0x00 (0000ms, 0761ms total)
T294C 003:027 JLINK_WriteReg(R1, 0x00000400)  returns 0x00 (0000ms, 0761ms total)
T294C 003:027 JLINK_WriteReg(R2, 0x20000180)  returns 0x00 (0000ms, 0761ms total)
T294C 003:027 JLINK_WriteReg(R3, 0x00000000)  returns 0x00 (0000ms, 0761ms total)
T294C 003:027 JLINK_WriteReg(R4, 0x00000000)  returns 0x00 (0000ms, 0761ms total)
T294C 003:027 JLINK_WriteReg(R5, 0x00000000)  returns 0x00 (0000ms, 0761ms total)
T294C 003:027 JLINK_WriteReg(R6, 0x00000000)  returns 0x00 (0000ms, 0761ms total)
T294C 003:027 JLINK_WriteReg(R7, 0x00000000)  returns 0x00 (0000ms, 0761ms total)
T294C 003:027 JLINK_WriteReg(R8, 0x00000000)  returns 0x00 (0000ms, 0761ms total)
T294C 003:027 JLINK_WriteReg(R9, 0x2000017C)  returns 0x00 (0000ms, 0761ms total)
T294C 003:027 JLINK_WriteReg(R10, 0x00000000)  returns 0x00 (0000ms, 0761ms total)
T294C 003:027 JLINK_WriteReg(R11, 0x00000000)  returns 0x00 (0000ms, 0761ms total)
T294C 003:027 JLINK_WriteReg(R12, 0x00000000)  returns 0x00 (0000ms, 0761ms total)
T294C 003:027 JLINK_WriteReg(R13 (SP), 0x20001000)  returns 0x00 (0000ms, 0761ms total)
T294C 003:027 JLINK_WriteReg(R14, 0x20000001)  returns 0x00 (0000ms, 0761ms total)
T294C 003:027 JLINK_WriteReg(R15 (PC), 0x20000108)  returns 0x00 (0000ms, 0761ms total)
T294C 003:027 JLINK_WriteReg(XPSR, 0x01000000)  returns 0x00 (0000ms, 0761ms total)
T294C 003:027 JLINK_WriteReg(MSP, 0x20001000)  returns 0x00 (0000ms, 0761ms total)
T294C 003:027 JLINK_WriteReg(PSP, 0x20001000)  returns 0x00 (0000ms, 0761ms total)
T294C 003:027 JLINK_WriteReg(CFBP, 0x00000000)  returns 0x00 (0000ms, 0761ms total)
T294C 003:027 JLINK_SetBPEx(Addr = 0x20000000, Type = 0xFFFFFFF2)  returns 0x0000000A (0001ms, 0762ms total)
T294C 003:028 JLINK_Go() (0001ms, 0763ms total)
T294C 003:029 JLINK_IsHalted()  returns FALSE (0001ms, 0764ms total)
T294C 003:367 JLINK_IsHalted() -- CPU_ReadMem(2 bytes @ 0x20000000)  returns TRUE (0004ms, 0767ms total)
T294C 003:371 JLINK_ReadReg(R15 (PC))  returns 0x20000000 (0000ms, 0763ms total)
T294C 003:371 JLINK_ClrBPEx(BPHandle = 0x0000000A)  returns 0x00 (0000ms, 0763ms total)
T294C 003:371 JLINK_ReadReg(R0)  returns 0x00000000 (0000ms, 0763ms total)
T294C 003:372 JLINK_WriteMem(0x20000180, 0x0400 Bytes, ...) - Data: 01 DD 00 20 08 80 10 BD 10 B5 04 46 00 BF 80 21 ... -- CPU_WriteMem(1024 bytes @ 0x20000180)  returns 0x400 (0012ms, 0775ms total)
T294C 003:384 JLINK_WriteReg(R0, 0x08001400)  returns 0x00 (0000ms, 0775ms total)
T294C 003:384 JLINK_WriteReg(R1, 0x00000400)  returns 0x00 (0000ms, 0775ms total)
T294C 003:385 JLINK_WriteReg(R2, 0x20000180)  returns 0x00 (0000ms, 0776ms total)
T294C 003:385 JLINK_WriteReg(R3, 0x00000000)  returns 0x00 (0000ms, 0776ms total)
T294C 003:385 JLINK_WriteReg(R4, 0x00000000)  returns 0x00 (0000ms, 0776ms total)
T294C 003:385 JLINK_WriteReg(R5, 0x00000000)  returns 0x00 (0000ms, 0776ms total)
T294C 003:385 JLINK_WriteReg(R6, 0x00000000)  returns 0x00 (0000ms, 0776ms total)
T294C 003:385 JLINK_WriteReg(R7, 0x00000000)  returns 0x00 (0000ms, 0776ms total)
T294C 003:385 JLINK_WriteReg(R8, 0x00000000)  returns 0x00 (0000ms, 0776ms total)
T294C 003:385 JLINK_WriteReg(R9, 0x2000017C)  returns 0x00 (0000ms, 0776ms total)
T294C 003:385 JLINK_WriteReg(R10, 0x00000000)  returns 0x00 (0000ms, 0776ms total)
T294C 003:385 JLINK_WriteReg(R11, 0x00000000)  returns 0x00 (0000ms, 0776ms total)
T294C 003:385 JLINK_WriteReg(R12, 0x00000000)  returns 0x00 (0000ms, 0776ms total)
T294C 003:385 JLINK_WriteReg(R13 (SP), 0x20001000)  returns 0x00 (0000ms, 0776ms total)
T294C 003:385 JLINK_WriteReg(R14, 0x20000001)  returns 0x00 (0000ms, 0776ms total)
T294C 003:385 JLINK_WriteReg(R15 (PC), 0x20000108)  returns 0x00 (0000ms, 0776ms total)
T294C 003:385 JLINK_WriteReg(XPSR, 0x01000000)  returns 0x00 (0000ms, 0776ms total)
T294C 003:385 JLINK_WriteReg(MSP, 0x20001000)  returns 0x00 (0000ms, 0776ms total)
T294C 003:385 JLINK_WriteReg(PSP, 0x20001000)  returns 0x00 (0000ms, 0776ms total)
T294C 003:385 JLINK_WriteReg(CFBP, 0x00000000)  returns 0x00 (0000ms, 0776ms total)
T294C 003:385 JLINK_SetBPEx(Addr = 0x20000000, Type = 0xFFFFFFF2)  returns 0x0000000B (0000ms, 0776ms total)
T294C 003:385 JLINK_Go() (0002ms, 0778ms total)
T294C 003:387 JLINK_IsHalted()  returns FALSE (0001ms, 0779ms total)
T294C 003:728 JLINK_IsHalted() -- CPU_ReadMem(2 bytes @ 0x20000000)  returns TRUE (0003ms, 0781ms total)
T294C 003:731 JLINK_ReadReg(R15 (PC))  returns 0x20000000 (0000ms, 0778ms total)
T294C 003:731 JLINK_ClrBPEx(BPHandle = 0x0000000B)  returns 0x00 (0000ms, 0778ms total)
T294C 003:732 JLINK_ReadReg(R0)  returns 0x00000000 (0000ms, 0779ms total)
T294C 003:733 JLINK_WriteMem(0x20000180, 0x0400 Bytes, ...) - Data: D5 79 4E 00 B5 40 C6 68 35 43 C5 60 49 1C 10 29 ... -- CPU_WriteMem(1024 bytes @ 0x20000180)  returns 0x400 (0012ms, 0791ms total)
T294C 003:745 JLINK_WriteReg(R0, 0x08001800)  returns 0x00 (0000ms, 0791ms total)
T294C 003:745 JLINK_WriteReg(R1, 0x00000400)  returns 0x00 (0000ms, 0791ms total)
T294C 003:745 JLINK_WriteReg(R2, 0x20000180)  returns 0x00 (0000ms, 0791ms total)
T294C 003:745 JLINK_WriteReg(R3, 0x00000000)  returns 0x00 (0000ms, 0791ms total)
T294C 003:745 JLINK_WriteReg(R4, 0x00000000)  returns 0x00 (0000ms, 0791ms total)
T294C 003:745 JLINK_WriteReg(R5, 0x00000000)  returns 0x00 (0000ms, 0791ms total)
T294C 003:745 JLINK_WriteReg(R6, 0x00000000)  returns 0x00 (0000ms, 0791ms total)
T294C 003:745 JLINK_WriteReg(R7, 0x00000000)  returns 0x00 (0000ms, 0791ms total)
T294C 003:745 JLINK_WriteReg(R8, 0x00000000)  returns 0x00 (0000ms, 0791ms total)
T294C 003:745 JLINK_WriteReg(R9, 0x2000017C)  returns 0x00 (0000ms, 0791ms total)
T294C 003:745 JLINK_WriteReg(R10, 0x00000000)  returns 0x00 (0000ms, 0791ms total)
T294C 003:745 JLINK_WriteReg(R11, 0x00000000)  returns 0x00 (0000ms, 0791ms total)
T294C 003:745 JLINK_WriteReg(R12, 0x00000000)  returns 0x00 (0000ms, 0791ms total)
T294C 003:745 JLINK_WriteReg(R13 (SP), 0x20001000)  returns 0x00 (0000ms, 0791ms total)
T294C 003:745 JLINK_WriteReg(R14, 0x20000001)  returns 0x00 (0000ms, 0791ms total)
T294C 003:746 JLINK_WriteReg(R15 (PC), 0x20000108)  returns 0x00 (0000ms, 0791ms total)
T294C 003:746 JLINK_WriteReg(XPSR, 0x01000000)  returns 0x00 (0000ms, 0791ms total)
T294C 003:746 JLINK_WriteReg(MSP, 0x20001000)  returns 0x00 (0000ms, 0791ms total)
T294C 003:746 JLINK_WriteReg(PSP, 0x20001000)  returns 0x00 (0000ms, 0791ms total)
T294C 003:746 JLINK_WriteReg(CFBP, 0x00000000)  returns 0x00 (0000ms, 0791ms total)
T294C 003:746 JLINK_SetBPEx(Addr = 0x20000000, Type = 0xFFFFFFF2)  returns 0x0000000C (0000ms, 0791ms total)
T294C 003:746 JLINK_Go() (0002ms, 0793ms total)
T294C 003:748 JLINK_IsHalted()  returns FALSE (0001ms, 0794ms total)
T294C 004:090 JLINK_IsHalted() -- CPU_ReadMem(2 bytes @ 0x20000000)  returns TRUE (0004ms, 0797ms total)
T294C 004:094 JLINK_ReadReg(R15 (PC))  returns 0x20000000 (0000ms, 0793ms total)
T294C 004:094 JLINK_ClrBPEx(BPHandle = 0x0000000C)  returns 0x00 (0000ms, 0793ms total)
T294C 004:094 JLINK_ReadReg(R0)  returns 0x00000000 (0000ms, 0793ms total)
T294C 004:095 JLINK_WriteMem(0x20000180, 0x0400 Bytes, ...) - Data: 70 47 21 B1 82 8A 42 F0 10 02 82 82 04 E0 82 8A ... -- CPU_WriteMem(1024 bytes @ 0x20000180)  returns 0x400 (0012ms, 0805ms total)
T294C 004:107 JLINK_WriteReg(R0, 0x08001C00)  returns 0x00 (0000ms, 0805ms total)
T294C 004:107 JLINK_WriteReg(R1, 0x00000400)  returns 0x00 (0000ms, 0805ms total)
T294C 004:107 JLINK_WriteReg(R2, 0x20000180)  returns 0x00 (0000ms, 0805ms total)
T294C 004:107 JLINK_WriteReg(R3, 0x00000000)  returns 0x00 (0000ms, 0805ms total)
T294C 004:107 JLINK_WriteReg(R4, 0x00000000)  returns 0x00 (0000ms, 0805ms total)
T294C 004:107 JLINK_WriteReg(R5, 0x00000000)  returns 0x00 (0000ms, 0805ms total)
T294C 004:107 JLINK_WriteReg(R6, 0x00000000)  returns 0x00 (0000ms, 0805ms total)
T294C 004:107 JLINK_WriteReg(R7, 0x00000000)  returns 0x00 (0000ms, 0805ms total)
T294C 004:107 JLINK_WriteReg(R8, 0x00000000)  returns 0x00 (0000ms, 0805ms total)
T294C 004:107 JLINK_WriteReg(R9, 0x2000017C)  returns 0x00 (0000ms, 0805ms total)
T294C 004:107 JLINK_WriteReg(R10, 0x00000000)  returns 0x00 (0000ms, 0805ms total)
T294C 004:107 JLINK_WriteReg(R11, 0x00000000)  returns 0x00 (0000ms, 0805ms total)
T294C 004:107 JLINK_WriteReg(R12, 0x00000000)  returns 0x00 (0001ms, 0806ms total)
T294C 004:108 JLINK_WriteReg(R13 (SP), 0x20001000)  returns 0x00 (0000ms, 0806ms total)
T294C 004:108 JLINK_WriteReg(R14, 0x20000001)  returns 0x00 (0000ms, 0806ms total)
T294C 004:108 JLINK_WriteReg(R15 (PC), 0x20000108)  returns 0x00 (0000ms, 0806ms total)
T294C 004:108 JLINK_WriteReg(XPSR, 0x01000000)  returns 0x00 (0000ms, 0806ms total)
T294C 004:108 JLINK_WriteReg(MSP, 0x20001000)  returns 0x00 (0000ms, 0806ms total)
T294C 004:108 JLINK_WriteReg(PSP, 0x20001000)  returns 0x00 (0000ms, 0806ms total)
T294C 004:108 JLINK_WriteReg(CFBP, 0x00000000)  returns 0x00 (0000ms, 0806ms total)
T294C 004:108 JLINK_SetBPEx(Addr = 0x20000000, Type = 0xFFFFFFF2)  returns 0x0000000D (0000ms, 0806ms total)
T294C 004:108 JLINK_Go() (0002ms, 0808ms total)
T294C 004:110 JLINK_IsHalted()  returns FALSE (0000ms, 0808ms total)
T294C 004:453 JLINK_IsHalted() -- CPU_ReadMem(2 bytes @ 0x20000000)  returns TRUE (0004ms, 0812ms total)
T294C 004:457 JLINK_ReadReg(R15 (PC))  returns 0x20000000 (0000ms, 0808ms total)
T294C 004:457 JLINK_ClrBPEx(BPHandle = 0x0000000D)  returns 0x00 (0000ms, 0808ms total)
T294C 004:457 JLINK_ReadReg(R0)  returns 0x00000000 (0000ms, 0808ms total)
T294C 004:459 JLINK_WriteMem(0x20000180, 0x0400 Bytes, ...) - Data: 2C 40 B5 1E 2C 40 0D 88 2C 43 75 1E 2A 40 8D 89 ... -- CPU_WriteMem(1024 bytes @ 0x20000180)  returns 0x400 (0013ms, 0821ms total)
T294C 004:472 JLINK_WriteReg(R0, 0x08002000)  returns 0x00 (0000ms, 0821ms total)
T294C 004:472 JLINK_WriteReg(R1, 0x00000400)  returns 0x00 (0000ms, 0821ms total)
T294C 004:472 JLINK_WriteReg(R2, 0x20000180)  returns 0x00 (0000ms, 0821ms total)
T294C 004:472 JLINK_WriteReg(R3, 0x00000000)  returns 0x00 (0000ms, 0821ms total)
T294C 004:472 JLINK_WriteReg(R4, 0x00000000)  returns 0x00 (0000ms, 0821ms total)
T294C 004:472 JLINK_WriteReg(R5, 0x00000000)  returns 0x00 (0000ms, 0821ms total)
T294C 004:472 JLINK_WriteReg(R6, 0x00000000)  returns 0x00 (0000ms, 0821ms total)
T294C 004:472 JLINK_WriteReg(R7, 0x00000000)  returns 0x00 (0000ms, 0821ms total)
T294C 004:472 JLINK_WriteReg(R8, 0x00000000)  returns 0x00 (0000ms, 0821ms total)
T294C 004:472 JLINK_WriteReg(R9, 0x2000017C)  returns 0x00 (0000ms, 0821ms total)
T294C 004:472 JLINK_WriteReg(R10, 0x00000000)  returns 0x00 (0000ms, 0821ms total)
T294C 004:472 JLINK_WriteReg(R11, 0x00000000)  returns 0x00 (0000ms, 0821ms total)
T294C 004:472 JLINK_WriteReg(R12, 0x00000000)  returns 0x00 (0000ms, 0821ms total)
T294C 004:472 JLINK_WriteReg(R13 (SP), 0x20001000)  returns 0x00 (0000ms, 0821ms total)
T294C 004:472 JLINK_WriteReg(R14, 0x20000001)  returns 0x00 (0000ms, 0821ms total)
T294C 004:472 JLINK_WriteReg(R15 (PC), 0x20000108)  returns 0x00 (0000ms, 0821ms total)
T294C 004:472 JLINK_WriteReg(XPSR, 0x01000000)  returns 0x00 (0000ms, 0821ms total)
T294C 004:472 JLINK_WriteReg(MSP, 0x20001000)  returns 0x00 (0000ms, 0821ms total)
T294C 004:472 JLINK_WriteReg(PSP, 0x20001000)  returns 0x00 (0000ms, 0821ms total)
T294C 004:472 JLINK_WriteReg(CFBP, 0x00000000)  returns 0x00 (0000ms, 0821ms total)
T294C 004:472 JLINK_SetBPEx(Addr = 0x20000000, Type = 0xFFFFFFF2)  returns 0x0000000E (0000ms, 0821ms total)
T294C 004:472 JLINK_Go() (0002ms, 0823ms total)
T294C 004:474 JLINK_IsHalted()  returns FALSE (0001ms, 0824ms total)
T294C 004:823 JLINK_IsHalted() -- CPU_ReadMem(2 bytes @ 0x20000000)  returns TRUE (0003ms, 0826ms total)
T294C 004:826 JLINK_ReadReg(R15 (PC))  returns 0x20000000 (0000ms, 0823ms total)
T294C 004:826 JLINK_ClrBPEx(BPHandle = 0x0000000E)  returns 0x00 (0000ms, 0823ms total)
T294C 004:826 JLINK_ReadReg(R0)  returns 0x00000000 (0000ms, 0823ms total)
T294C 004:827 JLINK_WriteMem(0x20000180, 0x0400 Bytes, ...) - Data: 70 47 0A 46 00 21 01 8C 4F F6 FD 73 19 40 11 43 ... -- CPU_WriteMem(1024 bytes @ 0x20000180)  returns 0x400 (0012ms, 0835ms total)
T294C 004:839 JLINK_WriteReg(R0, 0x08002400)  returns 0x00 (0001ms, 0836ms total)
T294C 004:840 JLINK_WriteReg(R1, 0x00000400)  returns 0x00 (0000ms, 0836ms total)
T294C 004:840 JLINK_WriteReg(R2, 0x20000180)  returns 0x00 (0000ms, 0836ms total)
T294C 004:840 JLINK_WriteReg(R3, 0x00000000)  returns 0x00 (0000ms, 0836ms total)
T294C 004:840 JLINK_WriteReg(R4, 0x00000000)  returns 0x00 (0000ms, 0836ms total)
T294C 004:840 JLINK_WriteReg(R5, 0x00000000)  returns 0x00 (0000ms, 0836ms total)
T294C 004:840 JLINK_WriteReg(R6, 0x00000000)  returns 0x00 (0000ms, 0836ms total)
T294C 004:840 JLINK_WriteReg(R7, 0x00000000)  returns 0x00 (0000ms, 0836ms total)
T294C 004:840 JLINK_WriteReg(R8, 0x00000000)  returns 0x00 (0000ms, 0836ms total)
T294C 004:840 JLINK_WriteReg(R9, 0x2000017C)  returns 0x00 (0000ms, 0836ms total)
T294C 004:840 JLINK_WriteReg(R10, 0x00000000)  returns 0x00 (0000ms, 0836ms total)
T294C 004:840 JLINK_WriteReg(R11, 0x00000000)  returns 0x00 (0000ms, 0836ms total)
T294C 004:840 JLINK_WriteReg(R12, 0x00000000)  returns 0x00 (0000ms, 0836ms total)
T294C 004:840 JLINK_WriteReg(R13 (SP), 0x20001000)  returns 0x00 (0000ms, 0836ms total)
T294C 004:840 JLINK_WriteReg(R14, 0x20000001)  returns 0x00 (0000ms, 0836ms total)
T294C 004:840 JLINK_WriteReg(R15 (PC), 0x20000108)  returns 0x00 (0000ms, 0836ms total)
T294C 004:840 JLINK_WriteReg(XPSR, 0x01000000)  returns 0x00 (0000ms, 0836ms total)
T294C 004:840 JLINK_WriteReg(MSP, 0x20001000)  returns 0x00 (0000ms, 0836ms total)
T294C 004:840 JLINK_WriteReg(PSP, 0x20001000)  returns 0x00 (0000ms, 0836ms total)
T294C 004:840 JLINK_WriteReg(CFBP, 0x00000000)  returns 0x00 (0000ms, 0836ms total)
T294C 004:840 JLINK_SetBPEx(Addr = 0x20000000, Type = 0xFFFFFFF2)  returns 0x0000000F (0000ms, 0836ms total)
T294C 004:840 JLINK_Go() (0002ms, 0838ms total)
T294C 004:842 JLINK_IsHalted()  returns FALSE (0001ms, 0839ms total)
T294C 005:191 JLINK_IsHalted() -- CPU_ReadMem(2 bytes @ 0x20000000)  returns TRUE (0003ms, 0841ms total)
T294C 005:194 JLINK_ReadReg(R15 (PC))  returns 0x20000000 (0000ms, 0838ms total)
T294C 005:194 JLINK_ClrBPEx(BPHandle = 0x0000000F)  returns 0x00 (0000ms, 0838ms total)
T294C 005:194 JLINK_ReadReg(R0)  returns 0x00000000 (0001ms, 0839ms total)
T294C 005:196 JLINK_WriteMem(0x20000180, 0x0400 Bytes, ...) - Data: 0B 43 83 81 02 E0 83 89 8B 43 83 81 70 47 81 82 ... -- CPU_WriteMem(1024 bytes @ 0x20000180)  returns 0x400 (0012ms, 0851ms total)
T294C 005:208 JLINK_WriteReg(R0, 0x08002800)  returns 0x00 (0000ms, 0851ms total)
T294C 005:208 JLINK_WriteReg(R1, 0x00000400)  returns 0x00 (0000ms, 0851ms total)
T294C 005:208 JLINK_WriteReg(R2, 0x20000180)  returns 0x00 (0000ms, 0851ms total)
T294C 005:208 JLINK_WriteReg(R3, 0x00000000)  returns 0x00 (0000ms, 0851ms total)
T294C 005:208 JLINK_WriteReg(R4, 0x00000000)  returns 0x00 (0000ms, 0851ms total)
T294C 005:208 JLINK_WriteReg(R5, 0x00000000)  returns 0x00 (0000ms, 0851ms total)
T294C 005:208 JLINK_WriteReg(R6, 0x00000000)  returns 0x00 (0000ms, 0851ms total)
T294C 005:208 JLINK_WriteReg(R7, 0x00000000)  returns 0x00 (0000ms, 0851ms total)
T294C 005:208 JLINK_WriteReg(R8, 0x00000000)  returns 0x00 (0000ms, 0851ms total)
T294C 005:208 JLINK_WriteReg(R9, 0x2000017C)  returns 0x00 (0000ms, 0851ms total)
T294C 005:208 JLINK_WriteReg(R10, 0x00000000)  returns 0x00 (0000ms, 0851ms total)
T294C 005:208 JLINK_WriteReg(R11, 0x00000000)  returns 0x00 (0000ms, 0851ms total)
T294C 005:208 JLINK_WriteReg(R12, 0x00000000)  returns 0x00 (0000ms, 0851ms total)
T294C 005:208 JLINK_WriteReg(R13 (SP), 0x20001000)  returns 0x00 (0000ms, 0851ms total)
T294C 005:208 JLINK_WriteReg(R14, 0x20000001)  returns 0x00 (0000ms, 0851ms total)
T294C 005:208 JLINK_WriteReg(R15 (PC), 0x20000108)  returns 0x00 (0000ms, 0851ms total)
T294C 005:208 JLINK_WriteReg(XPSR, 0x01000000)  returns 0x00 (0000ms, 0851ms total)
T294C 005:208 JLINK_WriteReg(MSP, 0x20001000)  returns 0x00 (0000ms, 0851ms total)
T294C 005:208 JLINK_WriteReg(PSP, 0x20001000)  returns 0x00 (0000ms, 0851ms total)
T294C 005:208 JLINK_WriteReg(CFBP, 0x00000000)  returns 0x00 (0001ms, 0852ms total)
T294C 005:209 JLINK_SetBPEx(Addr = 0x20000000, Type = 0xFFFFFFF2)  returns 0x00000010 (0000ms, 0852ms total)
T294C 005:209 JLINK_Go() (0001ms, 0853ms total)
T294C 005:211 JLINK_IsHalted()  returns FALSE (0001ms, 0854ms total)
T294C 005:557 JLINK_IsHalted() -- CPU_ReadMem(2 bytes @ 0x20000000)  returns TRUE (0003ms, 0856ms total)
T294C 005:560 JLINK_ReadReg(R15 (PC))  returns 0x20000000 (0000ms, 0853ms total)
T294C 005:560 JLINK_ClrBPEx(BPHandle = 0x00000010)  returns 0x00 (0000ms, 0853ms total)
T294C 005:560 JLINK_ReadReg(R0)  returns 0x00000000 (0000ms, 0853ms total)
T294C 005:561 JLINK_WriteMem(0x20000180, 0x0400 Bytes, ...) - Data: 01 46 00 20 79 4A 08 32 10 68 20 F4 60 40 40 EA ... -- CPU_WriteMem(1024 bytes @ 0x20000180)  returns 0x400 (0013ms, 0866ms total)
T294C 005:574 JLINK_WriteReg(R0, 0x08002C00)  returns 0x00 (0000ms, 0866ms total)
T294C 005:574 JLINK_WriteReg(R1, 0x00000400)  returns 0x00 (0000ms, 0866ms total)
T294C 005:574 JLINK_WriteReg(R2, 0x20000180)  returns 0x00 (0000ms, 0866ms total)
T294C 005:574 JLINK_WriteReg(R3, 0x00000000)  returns 0x00 (0000ms, 0866ms total)
T294C 005:574 JLINK_WriteReg(R4, 0x00000000)  returns 0x00 (0000ms, 0866ms total)
T294C 005:574 JLINK_WriteReg(R5, 0x00000000)  returns 0x00 (0000ms, 0866ms total)
T294C 005:574 JLINK_WriteReg(R6, 0x00000000)  returns 0x00 (0000ms, 0866ms total)
T294C 005:574 JLINK_WriteReg(R7, 0x00000000)  returns 0x00 (0000ms, 0866ms total)
T294C 005:574 JLINK_WriteReg(R8, 0x00000000)  returns 0x00 (0000ms, 0866ms total)
T294C 005:574 JLINK_WriteReg(R9, 0x2000017C)  returns 0x00 (0000ms, 0866ms total)
T294C 005:574 JLINK_WriteReg(R10, 0x00000000)  returns 0x00 (0000ms, 0866ms total)
T294C 005:574 JLINK_WriteReg(R11, 0x00000000)  returns 0x00 (0000ms, 0866ms total)
T294C 005:574 JLINK_WriteReg(R12, 0x00000000)  returns 0x00 (0000ms, 0866ms total)
T294C 005:574 JLINK_WriteReg(R13 (SP), 0x20001000)  returns 0x00 (0000ms, 0866ms total)
T294C 005:574 JLINK_WriteReg(R14, 0x20000001)  returns 0x00 (0000ms, 0866ms total)
T294C 005:574 JLINK_WriteReg(R15 (PC), 0x20000108)  returns 0x00 (0002ms, 0868ms total)
T294C 005:576 JLINK_WriteReg(XPSR, 0x01000000)  returns 0x00 (0000ms, 0868ms total)
T294C 005:576 JLINK_WriteReg(MSP, 0x20001000)  returns 0x00 (0000ms, 0868ms total)
T294C 005:576 JLINK_WriteReg(PSP, 0x20001000)  returns 0x00 (0000ms, 0868ms total)
T294C 005:576 JLINK_WriteReg(CFBP, 0x00000000)  returns 0x00 (0000ms, 0868ms total)
T294C 005:576 JLINK_SetBPEx(Addr = 0x20000000, Type = 0xFFFFFFF2)  returns 0x00000011 (0000ms, 0868ms total)
T294C 005:576 JLINK_Go() (0001ms, 0869ms total)
T294C 005:577 JLINK_IsHalted()  returns FALSE (0001ms, 0870ms total)
T294C 005:922 JLINK_IsHalted() -- CPU_ReadMem(2 bytes @ 0x20000000)  returns TRUE (0004ms, 0873ms total)
T294C 005:926 JLINK_ReadReg(R15 (PC))  returns 0x20000000 (0000ms, 0869ms total)
T294C 005:926 JLINK_ClrBPEx(BPHandle = 0x00000011)  returns 0x00 (0000ms, 0869ms total)
T294C 005:926 JLINK_ReadReg(R0)  returns 0x00000000 (0000ms, 0869ms total)
T294C 005:929 JLINK_WriteMem(0x20000180, 0x0400 Bytes, ...) - Data: 08 01 16 4A 3C 32 11 60 70 47 39 B1 13 4A 27 3A ... -- CPU_WriteMem(1024 bytes @ 0x20000180)  returns 0x400 (0013ms, 0882ms total)
T294C 005:942 JLINK_WriteReg(R0, 0x08003000)  returns 0x00 (0000ms, 0882ms total)
T294C 005:942 JLINK_WriteReg(R1, 0x00000390)  returns 0x00 (0000ms, 0882ms total)
T294C 005:942 JLINK_WriteReg(R2, 0x20000180)  returns 0x00 (0000ms, 0882ms total)
T294C 005:942 JLINK_WriteReg(R3, 0x00000000)  returns 0x00 (0000ms, 0882ms total)
T294C 005:942 JLINK_WriteReg(R4, 0x00000000)  returns 0x00 (0000ms, 0882ms total)
T294C 005:942 JLINK_WriteReg(R5, 0x00000000)  returns 0x00 (0000ms, 0882ms total)
T294C 005:942 JLINK_WriteReg(R6, 0x00000000)  returns 0x00 (0000ms, 0882ms total)
T294C 005:942 JLINK_WriteReg(R7, 0x00000000)  returns 0x00 (0000ms, 0882ms total)
T294C 005:942 JLINK_WriteReg(R8, 0x00000000)  returns 0x00 (0000ms, 0882ms total)
T294C 005:942 JLINK_WriteReg(R9, 0x2000017C)  returns 0x00 (0000ms, 0882ms total)
T294C 005:942 JLINK_WriteReg(R10, 0x00000000)  returns 0x00 (0000ms, 0882ms total)
